T5194 000:031.654   SEGGER J-Link V7.80c Log File
T5194 000:031.769   DLL Compiled: Sep 27 2022 16:01:16
T5194 000:031.775   Logging started @ 2023-04-07 01:20
T5194 000:031.780 - 31.783ms
T5194 000:031.790 JLINK_SetWarnOutHandler(...)
T5194 000:031.798 - 0.010ms
T5194 000:031.805 JLINK_OpenEx(...)
T5194 000:032.838   Firmware: J-Link OB-STM32F072-CortexM compiled Jan  7 2019 14:09:37
T5194 000:033.250   Firmware: J-Link OB-STM32F072-CortexM compiled Jan  7 2019 14:09:37
T5194 000:033.418   Decompressing FW timestamp took 147 us
T5194 000:038.503   Hardware: V1.00
T5194 000:038.516   S/N: 1
T5194 000:038.524   OEM: SEGGER
T5194 000:038.532   Feature(s): GDB, RDI, FlashBP, FlashDL, JFlash, RDDI
T5194 000:040.001   TELNET listener socket opened on port 19021
T5194 000:040.086   WEBSRV WEBSRV_Init(): Starting webserver thread(s)
T5194 000:040.198   WEBSRV Webserver running on local port 19080
T5194 000:044.758 - 12.965ms returns "O.K."
T5194 000:044.789 JLINK_SetErrorOutHandler(...)
T5194 000:044.795 - 0.008ms
T5194 000:044.812 JLINK_ExecCommand("ProjectFile = "D:\hmx\beacon_aoa\example\ble_peripheral\ble_app_uart\pca10040e\s112\arm5_no_packs\JLinkSettings.ini"", ...). 
T5194 000:055.025   Ref file found at: E:\Keil_v5\ARM\Segger\JLinkDevices.ref
T5194 000:055.115   REF file references invalid XML file: C:\Program Files\SEGGER\JLink\JLinkDevices.xml
T5194 000:055.261 - 10.455ms returns 0x00
T5194 000:058.349 JLINK_ExecCommand("Device = nRF52810_xxAA", ...). 
T5194 000:061.533   Device "NRF52810_XXAA" selected.
T5194 000:061.799 - 3.441ms returns 0x00
T5194 000:061.812 JLINK_ExecCommand("DisableConnectionTimeout", ...). 
T5194 000:061.822 - 0.004ms returns 0x01
T5194 000:061.835 JLINK_TIF_Select(JLINKARM_TIF_SWD)
T5194 000:062.614 - 0.786ms returns 0x00
T5194 000:062.629 JLINK_HasError()
T5194 000:062.647 JLINK_SetSpeed(500)
T5194 000:062.761 - 0.121ms
T5194 000:062.775 JLINK_GetHardwareVersion()
T5194 000:062.781 - 0.008ms returns 10000
T5194 000:062.789 JLINK_GetDLLVersion()
T5194 000:062.794 - 0.008ms returns 78003
T5194 000:062.802 JLINK_GetOEMString(...)
T5194 000:062.809 JLINK_GetFirmwareString(...)
T5194 000:062.814 - 0.008ms
T5194 000:071.482 JLINK_GetDLLVersion()
T5194 000:071.496 - 0.016ms returns 78003
T5194 000:071.504 JLINK_GetCompileDateTime()
T5194 000:071.510 - 0.008ms
T5194 000:074.365 JLINK_GetFirmwareString(...)
T5194 000:074.377 - 0.015ms
T5194 000:077.250 JLINK_GetHardwareVersion()
T5194 000:077.261 - 0.013ms returns 10000
T5194 000:081.730 JLINK_GetSN()
T5194 000:081.745 - 0.018ms returns 1
T5194 000:084.644 JLINK_GetOEMString(...)
T5194 000:090.834 JLINK_GetId()
T5194 000:094.030   InitTarget() start
T5194 000:094.049    J-Link Script File: Executing InitTarget()
T5194 000:101.439   InitTarget() end
T5194 000:105.940   Found SW-DP with ID 0x2BA01477
T5194 000:109.006   Old FW that does not support reading DPIDR via DAP jobs
T5194 000:113.808   DPv0 detected
T5194 000:116.655   CoreSight SoC-400 or earlier
T5194 000:119.485   Scanning AP map to find all available APs
T5194 000:124.779   AP[2]: Stopped AP scan as end of AP map has been reached
T5194 000:127.636   AP[0]: AHB-AP (IDR: 0x24770011)
T5194 000:131.591   AP[1]: JTAG-AP (IDR: 0x02880000)
T5194 000:134.487   Iterating through AP map to find AHB-AP to use
T5194 000:139.383   AP[0]: Core found
T5194 000:142.253   AP[0]: AHB-AP ROM base: 0xE00FF000
T5194 000:146.403   CPUID register: 0x410FC241. Implementer code: 0x41 (ARM)
T5194 000:149.400   Found Cortex-M4 r0p1, Little endian.
T5194 000:250.841   -- Max. mem block: 0x00002340
T5194 000:251.199   CPU_ReadMem(4 bytes @ 0xE000EDF0)
T5194 000:252.647   CPU_WriteMem(4 bytes @ 0xE000EDF0)
T5194 000:253.888   CPU_ReadMem(4 bytes @ 0xE0002000)
T5194 000:268.911   FPUnit: 6 code (BP) slots and 2 literal slots
T5194 000:268.978   CPU_ReadMem(4 bytes @ 0xE000EDFC)
T5194 000:270.166   CPU_WriteMem(4 bytes @ 0xE000EDFC)
T5194 000:271.587   CPU_ReadMem(4 bytes @ 0xE0001000)
T5194 000:272.886   CPU_WriteMem(4 bytes @ 0xE0001000)
T5194 000:274.185   CPU_ReadMem(4 bytes @ 0xE000ED88)
T5194 000:275.631   CPU_WriteMem(4 bytes @ 0xE000ED88)
T5194 000:276.963   CPU_ReadMem(4 bytes @ 0xE000ED88)
T5194 000:278.119   CPU_WriteMem(4 bytes @ 0xE000ED88)
T5194 000:286.637   CoreSight components:
T5194 000:292.320   ROMTbl[0] @ E00FF000
T5194 000:292.347   CPU_ReadMem(64 bytes @ 0xE00FF000)
T5194 000:294.924   CPU_ReadMem(32 bytes @ 0xE000EFE0)
T5194 000:301.011   [0][0]: E000E000 CID B105E00D PID 000BB000 SCS
T5194 000:301.040   CPU_ReadMem(32 bytes @ 0xE0001FE0)
T5194 000:307.075   [0][1]: E0001000 CID B105E00D PID 003BB002 DWT
T5194 000:307.102   CPU_ReadMem(32 bytes @ 0xE0002FE0)
T5194 000:312.330   [0][2]: E0002000 CID B105E00D PID 002BB003 FPB
T5194 000:312.898 - 222.071ms returns 0x2BA01477
T5194 000:312.917 JLINK_GetDeviceFamily
T5194 000:312.923 - 0.008ms returns 14
T5194 000:315.936 JLINK_ReadMem(0xE00FFFF0, 0x10 Bytes, ...)
T5194 000:315.965   CPU_ReadMem(16 bytes @ 0xE00FFFF0)
T5194 000:317.472   Data:  0D 00 00 00 10 00 00 00 05 00 00 00 B1 00 00 00
T5194 000:317.495 - 1.562ms returns 0
T5194 000:317.507 JLINK_ReadMem(0xE00FFFD0, 0x20 Bytes, ...)
T5194 000:317.523   CPU_ReadMem(32 bytes @ 0xE00FFFD0)
T5194 000:319.471   Data:  02 00 00 00 00 00 00 00 00 00 00 00 00 00 00 00 ...
T5194 000:319.493 - 1.989ms returns 0
T5194 000:319.506 JLINK_ReadMem(0xE00FF000, 0x18 Bytes, ...)
T5194 000:319.521   CPU_ReadMem(24 bytes @ 0xE00FF000)
T5194 000:321.036   Data:  03 F0 F0 FF 03 20 F0 FF 03 30 F0 FF 02 10 F0 FF ...
T5194 000:321.058 - 1.555ms returns 0
T5194 000:321.070 JLINK_ReadMemU32(0xE000ED00, 0x1 Items)
T5194 000:321.085   CPU_ReadMem(4 bytes @ 0xE000ED00)
T5194 000:322.177   Data:  41 C2 0F 41
T5194 000:322.207   Debug reg: CPUID
T5194 000:322.216 - 1.148ms returns 1 (0x1)
T5194 000:322.228 JLINK_ReadMemU32(0xE000EF40, 0x1 Items)
T5194 000:322.243   CPU_ReadMem(4 bytes @ 0xE000EF40)
T5194 000:323.233   Data:  00 00 00 00
T5194 000:323.256 - 1.031ms returns 1 (0x1)
T5194 000:323.268 JLINK_ReadMemU32(0xE000EF44, 0x1 Items)
T5194 000:323.283   CPU_ReadMem(4 bytes @ 0xE000EF44)
T5194 000:324.396   Data:  00 00 00 00
T5194 000:324.409 - 1.144ms returns 1 (0x1)
T5194 000:324.420 JLINK_HasError()
T5194 000:324.428 JLINK_SetResetType(JLINKARM_CM3_RESET_TYPE_NORMAL)
T5194 000:324.434 - 0.008ms returns JLINKARM_CM3_RESET_TYPE_NORMAL
T5194 000:324.441 JLINK_Reset()
T5194 000:324.461   CPU is running
T5194 000:324.471   CPU_WriteMem(4 bytes @ 0xE000EDF0)
T5194 000:325.522   CPU is running
T5194 000:325.544   CPU_WriteMem(4 bytes @ 0xE000EDFC)
T5194 000:329.718   Reset: Halt core after reset via DEMCR.VC_CORERESET.
T5194 000:333.335   Reset: Reset device via AIRCR.SYSRESETREQ.
T5194 000:333.353   CPU is running
T5194 000:333.364   CPU_WriteMem(4 bytes @ 0xE000ED0C)
T5194 000:386.903   CPU_ReadMem(4 bytes @ 0xE000EDF0)
T5194 000:388.168   CPU_ReadMem(4 bytes @ 0xE000EDF0)
T5194 000:389.212   CPU is running
T5194 000:389.246   CPU_WriteMem(4 bytes @ 0xE000EDF0)
T5194 000:390.330   CPU is running
T5194 000:390.368   CPU_WriteMem(4 bytes @ 0xE000EDFC)
T5194 000:396.939   CPU_ReadMem(4 bytes @ 0xE000EDF0)
T5194 000:410.236   CPU_WriteMem(4 bytes @ 0xE0002000)
T5194 000:411.364   CPU_ReadMem(4 bytes @ 0xE000EDFC)
T5194 000:412.493   CPU_ReadMem(4 bytes @ 0xE0001000)
T5194 000:413.677 - 89.260ms
T5194 000:413.748 JLINK_Halt()
T5194 000:413.772 - 0.034ms returns 0x00
T5194 000:413.801 JLINK_IsHalted()
T5194 000:413.847 - 0.057ms returns TRUE
T5194 000:413.882 JLINK_ReadMemU32(0xE000EDF0, 0x1 Items)
T5194 000:413.922   CPU_ReadMem(4 bytes @ 0xE000EDF0)
T5194 000:415.021   Data:  03 00 03 00
T5194 000:415.073   Debug reg: DHCSR
T5194 000:415.107 - 1.237ms returns 1 (0x1)
T5194 000:415.165 JLINK_WriteU32_64(0xE000EDF0, 0xA05F0003)
T5194 000:415.192   Debug reg: DHCSR
T5194 000:416.473   CPU_WriteMem(4 bytes @ 0xE000EDF0)
T5194 000:417.607 - 2.468ms returns 0 (0x00000000)
T5194 000:417.667 JLINK_WriteU32_64(0xE000EDFC, 0x01000000)
T5194 000:417.695   Debug reg: DEMCR
T5194 000:417.747   CPU_WriteMem(4 bytes @ 0xE000EDFC)
T5194 000:418.856 - 1.216ms returns 0 (0x00000000)
T5194 000:452.469 JLINK_GetHWStatus(...)
T5194 000:452.725 - 0.267ms returns 0
T5194 000:465.341 JLINK_GetNumBPUnits(Type = 0xFFFFFF00)
T5194 000:465.360 - 0.023ms returns 0x06
T5194 000:465.369 JLINK_GetNumBPUnits(Type = 0xF0)
T5194 000:465.375 - 0.009ms returns 0x2000
T5194 000:465.383 JLINK_GetNumWPUnits()
T5194 000:465.388 - 0.008ms returns 4
T5194 000:473.995 JLINK_GetSpeed()
T5194 000:474.009 - 0.017ms returns 500
T5194 000:479.582 JLINK_ReadMemU32(0xE000E004, 0x1 Items)
T5194 000:479.612   CPU_ReadMem(4 bytes @ 0xE000E004)
T5194 000:480.617   Data:  00 00 00 00
T5194 000:480.632 - 1.053ms returns 1 (0x1)
T5194 000:480.642 JLINK_ReadMemU32(0xE000E004, 0x1 Items)
T5194 000:480.654   CPU_ReadMem(4 bytes @ 0xE000E004)
T5194 000:481.638   Data:  00 00 00 00
T5194 000:481.661 - 1.022ms returns 1 (0x1)
T5194 000:481.674 JLINK_WriteMem(0xE0001000, 0x1C Bytes, ...)
T5194 000:481.680   Data:  01 00 00 00 00 00 00 00 00 00 00 00 00 00 00 00 ...
T5194 000:481.699   CPU_WriteMem(28 bytes @ 0xE0001000)
T5194 000:483.416 - 1.760ms returns 0x1C
T5194 000:483.443 JLINK_ReadMem(0xE0001000, 0x1C Bytes, ...)
T5194 000:483.459   CPU_ReadMem(28 bytes @ 0xE0001000)
T5194 000:485.144   Data:  01 00 00 4F 00 00 00 00 00 00 00 00 00 00 00 00 ...
T5194 000:485.167 - 1.727ms returns 0
T5194 000:485.182 JLINK_Halt()
T5194 000:485.188 - 0.009ms returns 0x00
T5194 000:485.196 JLINK_IsHalted()
T5194 000:485.202 - 0.009ms returns TRUE
T5194 000:487.709 JLINK_WriteMem(0x20000000, 0x5B8 Bytes, ...)
T5194 000:487.720   Data:  00 BE 0A E0 0D 78 2D 06 68 40 08 24 40 00 00 D3 ...
T5194 000:488.408   CPU_WriteMem(1464 bytes @ 0x20000000)
T5194 000:529.078 - 41.386ms returns 0x5B8
T5194 000:529.141 JLINK_HasError()
T5194 000:529.152 JLINK_WriteReg(R0, 0x00000000)
T5194 000:529.163 - 0.013ms returns 0
T5194 000:529.171 JLINK_WriteReg(R1, 0x01E84800)
T5194 000:529.177 - 0.008ms returns 0
T5194 000:529.185 JLINK_WriteReg(R2, 0x00000001)
T5194 000:529.190 - 0.008ms returns 0
T5194 000:529.197 JLINK_WriteReg(R3, 0x00000000)
T5194 000:529.203 - 0.008ms returns 0
T5194 000:529.279 JLINK_WriteReg(R4, 0x00000000)
T5194 000:529.293 - 0.017ms returns 0
T5194 000:529.301 JLINK_WriteReg(R5, 0x00000000)
T5194 000:529.308 - 0.008ms returns 0
T5194 000:529.315 JLINK_WriteReg(R6, 0x00000000)
T5194 000:529.320 - 0.008ms returns 0
T5194 000:529.327 JLINK_WriteReg(R7, 0x00000000)
T5194 000:529.333 - 0.008ms returns 0
T5194 000:529.340 JLINK_WriteReg(R8, 0x00000000)
T5194 000:529.354 - 0.016ms returns 0
T5194 000:529.361 JLINK_WriteReg(R9, 0x200005B4)
T5194 000:529.367 - 0.008ms returns 0
T5194 000:529.374 JLINK_WriteReg(R10, 0x00000000)
T5194 000:529.380 - 0.008ms returns 0
T5194 000:529.387 JLINK_WriteReg(R11, 0x00000000)
T5194 000:529.393 - 0.008ms returns 0
T5194 000:529.399 JLINK_WriteReg(R12, 0x00000000)
T5194 000:529.405 - 0.008ms returns 0
T5194 000:529.412 JLINK_WriteReg(R13 (SP), 0x20002000)
T5194 000:529.418 - 0.009ms returns 0
T5194 000:529.425 JLINK_WriteReg(R14, 0x20000001)
T5194 000:529.431 - 0.008ms returns 0
T5194 000:529.438 JLINK_WriteReg(R15 (PC), 0x20000020)
T5194 000:529.446 - 0.010ms returns 0
T5194 000:529.453 JLINK_WriteReg(XPSR, 0x01000000)
T5194 000:529.459 - 0.008ms returns 0
T5194 000:529.466 JLINK_WriteReg(MSP, 0x20002000)
T5194 000:529.471 - 0.008ms returns 0
T5194 000:529.478 JLINK_WriteReg(PSP, 0x20002000)
T5194 000:529.492 - 0.016ms returns 0
T5194 000:529.499 JLINK_WriteReg(CFBP, 0x00000000)
T5194 000:529.505 - 0.008ms returns 0
T5194 000:529.512 JLINK_SetBPEx(Addr = 0x20000000, Type = 0xFFFFFFF2)
T5194 000:529.524   CPU_ReadMem(2 bytes @ 0x20000000)
T5194 000:530.450 - 0.950ms returns 0x00000001
T5194 000:530.472 JLINK_Go()
T5194 000:530.489   CPU_WriteMem(2 bytes @ 0x20000000)
T5194 000:531.447   CPU_ReadMem(4 bytes @ 0xE0001000)
T5194 000:532.367   CPU_WriteMem(4 bytes @ 0xE0002008)
T5194 000:532.382   CPU_WriteMem(4 bytes @ 0xE000200C)
T5194 000:532.391   CPU_WriteMem(4 bytes @ 0xE0002010)
T5194 000:532.405   CPU_WriteMem(4 bytes @ 0xE0002014)
T5194 000:532.413   CPU_WriteMem(4 bytes @ 0xE0002018)
T5194 000:532.422   CPU_WriteMem(4 bytes @ 0xE000201C)
T5194 000:537.504   CPU_WriteMem(4 bytes @ 0xE0001004)
T5194 000:550.005 - 19.556ms
T5194 000:550.041 JLINK_IsHalted()
T5194 000:562.611   CPU_ReadMem(2 bytes @ 0x20000000)
T5194 000:563.891 - 13.880ms returns TRUE
T5194 000:563.947 JLINK_ReadReg(R15 (PC))
T5194 000:563.981 - 0.042ms returns 0x20000000
T5194 000:564.005 JLINK_ClrBPEx(BPHandle = 0x00000001)
T5194 000:564.021 - 0.023ms returns 0x00
T5194 000:564.041 JLINK_ReadReg(R0)
T5194 000:564.056 - 0.021ms returns 0x00000000
T5194 000:564.694 JLINK_HasError()
T5194 000:564.725 JLINK_WriteReg(R0, 0x00019000)
T5194 000:564.745 - 0.027ms returns 0
T5194 000:564.763 JLINK_WriteReg(R1, 0x00001000)
T5194 000:564.778 - 0.021ms returns 0
T5194 000:564.796 JLINK_WriteReg(R2, 0x000000FF)
T5194 000:564.810 - 0.021ms returns 0
T5194 000:564.827 JLINK_WriteReg(R3, 0x00000000)
T5194 000:564.841 - 0.020ms returns 0
T5194 000:564.859 JLINK_WriteReg(R4, 0x00000000)
T5194 000:564.873 - 0.020ms returns 0
T5194 000:564.890 JLINK_WriteReg(R5, 0x00000000)
T5194 000:564.904 - 0.020ms returns 0
T5194 000:564.921 JLINK_WriteReg(R6, 0x00000000)
T5194 000:564.936 - 0.020ms returns 0
T5194 000:564.953 JLINK_WriteReg(R7, 0x00000000)
T5194 000:564.967 - 0.020ms returns 0
T5194 000:564.986 JLINK_WriteReg(R8, 0x00000000)
T5194 000:565.001 - 0.021ms returns 0
T5194 000:565.018 JLINK_WriteReg(R9, 0x200005B4)
T5194 000:565.033 - 0.021ms returns 0
T5194 000:565.050 JLINK_WriteReg(R10, 0x00000000)
T5194 000:565.064 - 0.021ms returns 0
T5194 000:565.082 JLINK_WriteReg(R11, 0x00000000)
T5194 000:565.096 - 0.021ms returns 0
T5194 000:565.113 JLINK_WriteReg(R12, 0x00000000)
T5194 000:565.128 - 0.021ms returns 0
T5194 000:565.145 JLINK_WriteReg(R13 (SP), 0x20002000)
T5194 000:565.160 - 0.022ms returns 0
T5194 000:565.177 JLINK_WriteReg(R14, 0x20000001)
T5194 000:565.192 - 0.021ms returns 0
T5194 000:565.209 JLINK_WriteReg(R15 (PC), 0x20000288)
T5194 000:565.223 - 0.021ms returns 0
T5194 000:565.241 JLINK_WriteReg(XPSR, 0x01000000)
T5194 000:565.255 - 0.021ms returns 0
T5194 000:565.272 JLINK_WriteReg(MSP, 0x20002000)
T5194 000:565.286 - 0.020ms returns 0
T5194 000:565.303 JLINK_WriteReg(PSP, 0x20002000)
T5194 000:565.318 - 0.021ms returns 0
T5194 000:565.335 JLINK_WriteReg(CFBP, 0x00000000)
T5194 000:565.349 - 0.021ms returns 0
T5194 000:565.367 JLINK_SetBPEx(Addr = 0x20000000, Type = 0xFFFFFFF2)
T5194 000:565.383 - 0.023ms returns 0x00000002
T5194 000:565.401 JLINK_Go()
T5194 000:565.433   CPU_ReadMem(4 bytes @ 0xE0001000)
T5194 000:578.463 - 13.102ms
T5194 000:578.533 JLINK_IsHalted()
T5194 000:591.054   CPU_ReadMem(2 bytes @ 0x20000000)
T5194 000:592.248 - 13.759ms returns TRUE
T5194 000:592.335 JLINK_ReadReg(R15 (PC))
T5194 000:592.374 - 0.052ms returns 0x20000000
T5194 000:592.574 JLINK_ClrBPEx(BPHandle = 0x00000002)
T5194 000:592.631 - 0.071ms returns 0x00
T5194 000:592.668 JLINK_ReadReg(R0)
T5194 000:592.698 - 0.041ms returns 0x00000001
T5194 000:592.747 JLINK_HasError()
T5194 000:592.781 JLINK_WriteReg(R0, 0x00019000)
T5194 000:592.810 - 0.041ms returns 0
T5194 000:592.842 JLINK_WriteReg(R1, 0x00001000)
T5194 000:592.869 - 0.038ms returns 0
T5194 000:592.899 JLINK_WriteReg(R2, 0x000000FF)
T5194 000:592.925 - 0.037ms returns 0
T5194 000:592.955 JLINK_WriteReg(R3, 0x00000000)
T5194 000:592.980 - 0.037ms returns 0
T5194 000:593.011 JLINK_WriteReg(R4, 0x00000000)
T5194 000:593.036 - 0.037ms returns 0
T5194 000:593.066 JLINK_WriteReg(R5, 0x00000000)
T5194 000:593.092 - 0.037ms returns 0
T5194 000:593.123 JLINK_WriteReg(R6, 0x00000000)
T5194 000:593.148 - 0.036ms returns 0
T5194 000:593.178 JLINK_WriteReg(R7, 0x00000000)
T5194 000:593.203 - 0.036ms returns 0
T5194 000:593.234 JLINK_WriteReg(R8, 0x00000000)
T5194 000:593.259 - 0.036ms returns 0
T5194 000:593.289 JLINK_WriteReg(R9, 0x200005B4)
T5194 000:593.315 - 0.037ms returns 0
T5194 000:593.345 JLINK_WriteReg(R10, 0x00000000)
T5194 000:593.507 - 0.186ms returns 0
T5194 000:593.553 JLINK_WriteReg(R11, 0x00000000)
T5194 000:593.579 - 0.038ms returns 0
T5194 000:593.609 JLINK_WriteReg(R12, 0x00000000)
T5194 000:593.635 - 0.037ms returns 0
T5194 000:593.665 JLINK_WriteReg(R13 (SP), 0x20002000)
T5194 000:593.692 - 0.039ms returns 0
T5194 000:593.789 JLINK_WriteReg(R14, 0x20000001)
T5194 000:593.819 - 0.042ms returns 0
T5194 000:593.850 JLINK_WriteReg(R15 (PC), 0x200000D4)
T5194 000:593.876 - 0.037ms returns 0
T5194 000:593.907 JLINK_WriteReg(XPSR, 0x01000000)
T5194 000:593.932 - 0.037ms returns 0
T5194 000:593.963 JLINK_WriteReg(MSP, 0x20002000)
T5194 000:593.988 - 0.037ms returns 0
T5194 000:594.019 JLINK_WriteReg(PSP, 0x20002000)
T5194 000:594.044 - 0.037ms returns 0
T5194 000:594.075 JLINK_WriteReg(CFBP, 0x00000000)
T5194 000:594.100 - 0.037ms returns 0
T5194 000:594.131 JLINK_SetBPEx(Addr = 0x20000000, Type = 0xFFFFFFF2)
T5194 000:594.161 - 0.042ms returns 0x00000003
T5194 000:594.193 JLINK_Go()
T5194 000:594.246   CPU_ReadMem(4 bytes @ 0xE0001000)
T5194 000:607.302 - 13.154ms
T5194 000:607.380 JLINK_IsHalted()
T5194 000:608.772 - 1.437ms returns FALSE
T5194 000:608.851 JLINK_HasError()
T5194 000:659.094 JLINK_IsHalted()
T5194 000:660.384 - 1.340ms returns FALSE
T5194 000:660.471 JLINK_HasError()
T5194 000:711.030 JLINK_IsHalted()
T5194 000:723.846   CPU_ReadMem(2 bytes @ 0x20000000)
T5194 000:725.246 - 14.264ms returns TRUE
T5194 000:725.342 JLINK_ReadReg(R15 (PC))
T5194 000:725.385 - 0.058ms returns 0x20000000
T5194 000:725.430 JLINK_ClrBPEx(BPHandle = 0x00000003)
T5194 000:725.461 - 0.045ms returns 0x00
T5194 000:725.508 JLINK_ReadReg(R0)
T5194 000:725.538 - 0.043ms returns 0x00000000
T5194 000:727.513 JLINK_HasError()
T5194 000:727.570 JLINK_WriteReg(R0, 0x0001A000)
T5194 000:727.607 - 0.051ms returns 0
T5194 000:727.643 JLINK_WriteReg(R1, 0x00001000)
T5194 000:727.672 - 0.042ms returns 0
T5194 000:727.706 JLINK_WriteReg(R2, 0x000000FF)
T5194 000:727.735 - 0.041ms returns 0
T5194 000:727.769 JLINK_WriteReg(R3, 0x00000000)
T5194 000:727.797 - 0.041ms returns 0
T5194 000:727.831 JLINK_WriteReg(R4, 0x00000000)
T5194 000:727.859 - 0.041ms returns 0
T5194 000:727.893 JLINK_WriteReg(R5, 0x00000000)
T5194 000:727.922 - 0.042ms returns 0
T5194 000:727.956 JLINK_WriteReg(R6, 0x00000000)
T5194 000:727.984 - 0.041ms returns 0
T5194 000:728.018 JLINK_WriteReg(R7, 0x00000000)
T5194 000:728.046 - 0.041ms returns 0
T5194 000:728.080 JLINK_WriteReg(R8, 0x00000000)
T5194 000:728.109 - 0.041ms returns 0
T5194 000:728.143 JLINK_WriteReg(R9, 0x200005B4)
T5194 000:728.171 - 0.041ms returns 0
T5194 000:728.205 JLINK_WriteReg(R10, 0x00000000)
T5194 000:728.233 - 0.041ms returns 0
T5194 000:728.267 JLINK_WriteReg(R11, 0x00000000)
T5194 000:728.295 - 0.041ms returns 0
T5194 000:728.329 JLINK_WriteReg(R12, 0x00000000)
T5194 000:728.357 - 0.041ms returns 0
T5194 000:728.391 JLINK_WriteReg(R13 (SP), 0x20002000)
T5194 000:728.434 - 0.056ms returns 0
T5194 000:728.468 JLINK_WriteReg(R14, 0x20000001)
T5194 000:728.516 - 0.060ms returns 0
T5194 000:728.550 JLINK_WriteReg(R15 (PC), 0x20000288)
T5194 000:728.578 - 0.041ms returns 0
T5194 000:728.612 JLINK_WriteReg(XPSR, 0x01000000)
T5194 000:728.640 - 0.041ms returns 0
T5194 000:728.675 JLINK_WriteReg(MSP, 0x20002000)
T5194 000:728.702 - 0.041ms returns 0
T5194 000:728.736 JLINK_WriteReg(PSP, 0x20002000)
T5194 000:728.764 - 0.041ms returns 0
T5194 000:728.798 JLINK_WriteReg(CFBP, 0x00000000)
T5194 000:728.826 - 0.041ms returns 0
T5194 000:728.860 JLINK_SetBPEx(Addr = 0x20000000, Type = 0xFFFFFFF2)
T5194 000:728.892 - 0.045ms returns 0x00000004
T5194 000:728.928 JLINK_Go()
T5194 000:728.986   CPU_ReadMem(4 bytes @ 0xE0001000)
T5194 000:742.110 - 13.235ms
T5194 000:742.200 JLINK_IsHalted()
T5194 000:755.104   CPU_ReadMem(2 bytes @ 0x20000000)
T5194 000:756.370 - 14.218ms returns TRUE
T5194 000:756.464 JLINK_ReadReg(R15 (PC))
T5194 000:756.508 - 0.058ms returns 0x20000000
T5194 000:756.552 JLINK_ClrBPEx(BPHandle = 0x00000004)
T5194 000:756.595 - 0.063ms returns 0x00
T5194 000:756.644 JLINK_ReadReg(R0)
T5194 000:756.673 - 0.042ms returns 0x00000001
T5194 000:756.868 JLINK_HasError()
T5194 000:756.932 JLINK_WriteReg(R0, 0x0001A000)
T5194 000:756.974 - 0.056ms returns 0
T5194 000:757.022 JLINK_WriteReg(R1, 0x00001000)
T5194 000:757.052 - 0.044ms returns 0
T5194 000:757.088 JLINK_WriteReg(R2, 0x000000FF)
T5194 000:757.116 - 0.042ms returns 0
T5194 000:757.151 JLINK_WriteReg(R3, 0x00000000)
T5194 000:757.179 - 0.042ms returns 0
T5194 000:757.214 JLINK_WriteReg(R4, 0x00000000)
T5194 000:757.243 - 0.042ms returns 0
T5194 000:757.277 JLINK_WriteReg(R5, 0x00000000)
T5194 000:757.306 - 0.042ms returns 0
T5194 000:757.340 JLINK_WriteReg(R6, 0x00000000)
T5194 000:757.368 - 0.041ms returns 0
T5194 000:757.402 JLINK_WriteReg(R7, 0x00000000)
T5194 000:757.431 - 0.042ms returns 0
T5194 000:757.465 JLINK_WriteReg(R8, 0x00000000)
T5194 000:757.494 - 0.042ms returns 0
T5194 000:757.528 JLINK_WriteReg(R9, 0x200005B4)
T5194 000:757.556 - 0.041ms returns 0
T5194 000:757.591 JLINK_WriteReg(R10, 0x00000000)
T5194 000:757.620 - 0.042ms returns 0
T5194 000:757.654 JLINK_WriteReg(R11, 0x00000000)
T5194 000:757.682 - 0.041ms returns 0
T5194 000:757.716 JLINK_WriteReg(R12, 0x00000000)
T5194 000:757.745 - 0.041ms returns 0
T5194 000:757.779 JLINK_WriteReg(R13 (SP), 0x20002000)
T5194 000:757.809 - 0.044ms returns 0
T5194 000:757.844 JLINK_WriteReg(R14, 0x20000001)
T5194 000:757.872 - 0.042ms returns 0
T5194 000:757.906 JLINK_WriteReg(R15 (PC), 0x200000D4)
T5194 000:757.935 - 0.042ms returns 0
T5194 000:757.969 JLINK_WriteReg(XPSR, 0x01000000)
T5194 000:758.015 - 0.060ms returns 0
T5194 000:758.051 JLINK_WriteReg(MSP, 0x20002000)
T5194 000:758.080 - 0.042ms returns 0
T5194 000:758.114 JLINK_WriteReg(PSP, 0x20002000)
T5194 000:758.143 - 0.042ms returns 0
T5194 000:758.177 JLINK_WriteReg(CFBP, 0x00000000)
T5194 000:758.205 - 0.041ms returns 0
T5194 000:758.240 JLINK_SetBPEx(Addr = 0x20000000, Type = 0xFFFFFFF2)
T5194 000:758.273 - 0.046ms returns 0x00000005
T5194 000:758.309 JLINK_Go()
T5194 000:758.369   CPU_ReadMem(4 bytes @ 0xE0001000)
T5194 000:771.237 - 12.977ms
T5194 000:771.322 JLINK_IsHalted()
T5194 000:772.564 - 1.289ms returns FALSE
T5194 000:772.648 JLINK_HasError()
T5194 000:823.459 JLINK_IsHalted()
T5194 000:824.751 - 1.339ms returns FALSE
T5194 000:824.835 JLINK_HasError()
T5194 000:875.747 JLINK_IsHalted()
T5194 000:888.675   CPU_ReadMem(2 bytes @ 0x20000000)
T5194 000:889.991 - 14.292ms returns TRUE
T5194 000:890.086 JLINK_ReadReg(R15 (PC))
T5194 000:890.130 - 0.058ms returns 0x20000000
T5194 000:890.173 JLINK_ClrBPEx(BPHandle = 0x00000005)
T5194 000:890.204 - 0.044ms returns 0x00
T5194 000:890.244 JLINK_ReadReg(R0)
T5194 000:890.273 - 0.042ms returns 0x00000000
T5194 000:892.239 JLINK_HasError()
T5194 000:892.294 JLINK_WriteReg(R0, 0x0001B000)
T5194 000:892.331 - 0.051ms returns 0
T5194 000:892.368 JLINK_WriteReg(R1, 0x00001000)
T5194 000:892.397 - 0.042ms returns 0
T5194 000:892.431 JLINK_WriteReg(R2, 0x000000FF)
T5194 000:892.459 - 0.041ms returns 0
T5194 000:892.493 JLINK_WriteReg(R3, 0x00000000)
T5194 000:892.522 - 0.041ms returns 0
T5194 000:892.556 JLINK_WriteReg(R4, 0x00000000)
T5194 000:892.584 - 0.041ms returns 0
T5194 000:892.625 JLINK_WriteReg(R5, 0x00000000)
T5194 000:892.654 - 0.042ms returns 0
T5194 000:892.688 JLINK_WriteReg(R6, 0x00000000)
T5194 000:892.715 - 0.040ms returns 0
T5194 000:892.749 JLINK_WriteReg(R7, 0x00000000)
T5194 000:892.777 - 0.041ms returns 0
T5194 000:892.811 JLINK_WriteReg(R8, 0x00000000)
T5194 000:892.839 - 0.041ms returns 0
T5194 000:892.873 JLINK_WriteReg(R9, 0x200005B4)
T5194 000:892.901 - 0.041ms returns 0
T5194 000:892.935 JLINK_WriteReg(R10, 0x00000000)
T5194 000:892.963 - 0.041ms returns 0
T5194 000:892.997 JLINK_WriteReg(R11, 0x00000000)
T5194 000:893.025 - 0.041ms returns 0
T5194 000:893.060 JLINK_WriteReg(R12, 0x00000000)
T5194 000:893.088 - 0.041ms returns 0
T5194 000:893.122 JLINK_WriteReg(R13 (SP), 0x20002000)
T5194 000:893.163 - 0.062ms returns 0
T5194 000:893.206 JLINK_WriteReg(R14, 0x20000001)
T5194 000:893.234 - 0.041ms returns 0
T5194 000:893.269 JLINK_WriteReg(R15 (PC), 0x20000288)
T5194 000:893.297 - 0.042ms returns 0
T5194 000:893.331 JLINK_WriteReg(XPSR, 0x01000000)
T5194 000:893.364 - 0.045ms returns 0
T5194 000:893.398 JLINK_WriteReg(MSP, 0x20002000)
T5194 000:893.427 - 0.042ms returns 0
T5194 000:893.461 JLINK_WriteReg(PSP, 0x20002000)
T5194 000:893.489 - 0.041ms returns 0
T5194 000:893.523 JLINK_WriteReg(CFBP, 0x00000000)
T5194 000:893.551 - 0.041ms returns 0
T5194 000:893.585 JLINK_SetBPEx(Addr = 0x20000000, Type = 0xFFFFFFF2)
T5194 000:893.667 - 0.097ms returns 0x00000006
T5194 000:893.705 JLINK_Go()
T5194 000:893.762   CPU_ReadMem(4 bytes @ 0xE0001000)
T5194 000:906.812 - 13.154ms
T5194 000:906.896 JLINK_IsHalted()
T5194 000:919.950   CPU_ReadMem(2 bytes @ 0x20000000)
T5194 000:921.176 - 14.328ms returns TRUE
T5194 000:921.271 JLINK_ReadReg(R15 (PC))
T5194 000:921.315 - 0.059ms returns 0x20000000
T5194 000:921.360 JLINK_ClrBPEx(BPHandle = 0x00000006)
T5194 000:921.391 - 0.044ms returns 0x00
T5194 000:921.431 JLINK_ReadReg(R0)
T5194 000:921.460 - 0.042ms returns 0x00000000
T5194 000:923.424 JLINK_HasError()
T5194 000:923.480 JLINK_WriteReg(R0, 0x0001C000)
T5194 000:923.517 - 0.050ms returns 0
T5194 000:923.552 JLINK_WriteReg(R1, 0x00001000)
T5194 000:923.581 - 0.042ms returns 0
T5194 000:923.616 JLINK_WriteReg(R2, 0x000000FF)
T5194 000:923.644 - 0.041ms returns 0
T5194 000:923.678 JLINK_WriteReg(R3, 0x00000000)
T5194 000:923.706 - 0.041ms returns 0
T5194 000:923.741 JLINK_WriteReg(R4, 0x00000000)
T5194 000:923.769 - 0.042ms returns 0
T5194 000:923.804 JLINK_WriteReg(R5, 0x00000000)
T5194 000:923.832 - 0.041ms returns 0
T5194 000:923.866 JLINK_WriteReg(R6, 0x00000000)
T5194 000:923.895 - 0.041ms returns 0
T5194 000:923.928 JLINK_WriteReg(R7, 0x00000000)
T5194 000:923.956 - 0.041ms returns 0
T5194 000:923.994 JLINK_WriteReg(R8, 0x00000000)
T5194 000:924.067 - 0.086ms returns 0
T5194 000:924.102 JLINK_WriteReg(R9, 0x200005B4)
T5194 000:924.130 - 0.041ms returns 0
T5194 000:924.165 JLINK_WriteReg(R10, 0x00000000)
T5194 000:924.193 - 0.041ms returns 0
T5194 000:924.227 JLINK_WriteReg(R11, 0x00000000)
T5194 000:924.255 - 0.041ms returns 0
T5194 000:924.290 JLINK_WriteReg(R12, 0x00000000)
T5194 000:924.318 - 0.041ms returns 0
T5194 000:924.352 JLINK_WriteReg(R13 (SP), 0x20002000)
T5194 000:924.382 - 0.043ms returns 0
T5194 000:924.416 JLINK_WriteReg(R14, 0x20000001)
T5194 000:924.444 - 0.041ms returns 0
T5194 000:924.478 JLINK_WriteReg(R15 (PC), 0x20000288)
T5194 000:924.507 - 0.041ms returns 0
T5194 000:924.541 JLINK_WriteReg(XPSR, 0x01000000)
T5194 000:924.569 - 0.041ms returns 0
T5194 000:924.603 JLINK_WriteReg(MSP, 0x20002000)
T5194 000:924.631 - 0.041ms returns 0
T5194 000:924.665 JLINK_WriteReg(PSP, 0x20002000)
T5194 000:924.694 - 0.041ms returns 0
T5194 000:924.728 JLINK_WriteReg(CFBP, 0x00000000)
T5194 000:924.757 - 0.041ms returns 0
T5194 000:924.791 JLINK_SetBPEx(Addr = 0x20000000, Type = 0xFFFFFFF2)
T5194 000:924.824 - 0.046ms returns 0x00000007
T5194 000:924.859 JLINK_Go()
T5194 000:924.917   CPU_ReadMem(4 bytes @ 0xE0001000)
T5194 000:938.129 - 13.318ms
T5194 000:938.213 JLINK_IsHalted()
T5194 000:951.001   CPU_ReadMem(2 bytes @ 0x20000000)
T5194 000:952.428 - 14.263ms returns TRUE
T5194 000:952.522 JLINK_ReadReg(R15 (PC))
T5194 000:952.566 - 0.058ms returns 0x20000000
T5194 000:952.609 JLINK_ClrBPEx(BPHandle = 0x00000007)
T5194 000:952.640 - 0.044ms returns 0x00
T5194 000:952.680 JLINK_ReadReg(R0)
T5194 000:952.709 - 0.042ms returns 0x00000000
T5194 000:954.748 JLINK_HasError()
T5194 000:954.805 JLINK_WriteReg(R0, 0x0001D000)
T5194 000:954.843 - 0.052ms returns 0
T5194 000:954.879 JLINK_WriteReg(R1, 0x00001000)
T5194 000:954.908 - 0.042ms returns 0
T5194 000:954.942 JLINK_WriteReg(R2, 0x000000FF)
T5194 000:954.970 - 0.041ms returns 0
T5194 000:955.004 JLINK_WriteReg(R3, 0x00000000)
T5194 000:955.032 - 0.041ms returns 0
T5194 000:955.078 JLINK_WriteReg(R4, 0x00000000)
T5194 000:955.114 - 0.049ms returns 0
T5194 000:955.148 JLINK_WriteReg(R5, 0x00000000)
T5194 000:955.181 - 0.045ms returns 0
T5194 000:955.215 JLINK_WriteReg(R6, 0x00000000)
T5194 000:955.243 - 0.041ms returns 0
T5194 000:955.277 JLINK_WriteReg(R7, 0x00000000)
T5194 000:955.305 - 0.041ms returns 0
T5194 000:955.340 JLINK_WriteReg(R8, 0x00000000)
T5194 000:955.368 - 0.041ms returns 0
T5194 000:955.402 JLINK_WriteReg(R9, 0x200005B4)
T5194 000:955.430 - 0.041ms returns 0
T5194 000:955.463 JLINK_WriteReg(R10, 0x00000000)
T5194 000:955.492 - 0.041ms returns 0
T5194 000:955.526 JLINK_WriteReg(R11, 0x00000000)
T5194 000:955.554 - 0.041ms returns 0
T5194 000:955.588 JLINK_WriteReg(R12, 0x00000000)
T5194 000:955.617 - 0.041ms returns 0
T5194 000:955.650 JLINK_WriteReg(R13 (SP), 0x20002000)
T5194 000:955.680 - 0.043ms returns 0
T5194 000:955.714 JLINK_WriteReg(R14, 0x20000001)
T5194 000:955.743 - 0.041ms returns 0
T5194 000:955.776 JLINK_WriteReg(R15 (PC), 0x20000288)
T5194 000:955.805 - 0.041ms returns 0
T5194 000:955.839 JLINK_WriteReg(XPSR, 0x01000000)
T5194 000:955.867 - 0.041ms returns 0
T5194 000:955.901 JLINK_WriteReg(MSP, 0x20002000)
T5194 000:955.929 - 0.041ms returns 0
T5194 000:955.963 JLINK_WriteReg(PSP, 0x20002000)
T5194 000:955.991 - 0.041ms returns 0
T5194 000:956.025 JLINK_WriteReg(CFBP, 0x00000000)
T5194 000:956.053 - 0.041ms returns 0
T5194 000:956.088 JLINK_SetBPEx(Addr = 0x20000000, Type = 0xFFFFFFF2)
T5194 000:956.120 - 0.046ms returns 0x00000008
T5194 000:956.156 JLINK_Go()
T5194 000:956.219   CPU_ReadMem(4 bytes @ 0xE0001000)
T5194 000:969.607 - 13.499ms
T5194 000:969.691 JLINK_IsHalted()
T5194 000:982.546   CPU_ReadMem(2 bytes @ 0x20000000)
T5194 000:983.723 - 14.079ms returns TRUE
T5194 000:983.817 JLINK_ReadReg(R15 (PC))
T5194 000:983.861 - 0.058ms returns 0x20000000
T5194 000:983.905 JLINK_ClrBPEx(BPHandle = 0x00000008)
T5194 000:983.936 - 0.045ms returns 0x00
T5194 000:983.977 JLINK_ReadReg(R0)
T5194 000:984.006 - 0.043ms returns 0x00000000
T5194 000:985.962 JLINK_HasError()
T5194 000:986.017 JLINK_WriteReg(R0, 0x0001E000)
T5194 000:986.054 - 0.050ms returns 0
T5194 000:986.090 JLINK_WriteReg(R1, 0x00001000)
T5194 000:986.120 - 0.042ms returns 0
T5194 000:986.154 JLINK_WriteReg(R2, 0x000000FF)
T5194 000:986.183 - 0.041ms returns 0
T5194 000:986.218 JLINK_WriteReg(R3, 0x00000000)
T5194 000:986.251 - 0.046ms returns 0
T5194 000:986.285 JLINK_WriteReg(R4, 0x00000000)
T5194 000:986.314 - 0.041ms returns 0
T5194 000:986.348 JLINK_WriteReg(R5, 0x00000000)
T5194 000:986.376 - 0.041ms returns 0
T5194 000:986.410 JLINK_WriteReg(R6, 0x00000000)
T5194 000:986.438 - 0.041ms returns 0
T5194 000:986.472 JLINK_WriteReg(R7, 0x00000000)
T5194 000:986.500 - 0.041ms returns 0
T5194 000:986.534 JLINK_WriteReg(R8, 0x00000000)
T5194 000:986.562 - 0.041ms returns 0
T5194 000:986.596 JLINK_WriteReg(R9, 0x200005B4)
T5194 000:986.624 - 0.041ms returns 0
T5194 000:986.658 JLINK_WriteReg(R10, 0x00000000)
T5194 000:986.687 - 0.041ms returns 0
T5194 000:986.721 JLINK_WriteReg(R11, 0x00000000)
T5194 000:986.749 - 0.041ms returns 0
T5194 000:986.783 JLINK_WriteReg(R12, 0x00000000)
T5194 000:986.812 - 0.041ms returns 0
T5194 000:986.846 JLINK_WriteReg(R13 (SP), 0x20002000)
T5194 000:986.876 - 0.043ms returns 0
T5194 000:986.910 JLINK_WriteReg(R14, 0x20000001)
T5194 000:986.939 - 0.042ms returns 0
T5194 000:986.973 JLINK_WriteReg(R15 (PC), 0x20000288)
T5194 000:987.002 - 0.042ms returns 0
T5194 000:987.036 JLINK_WriteReg(XPSR, 0x01000000)
T5194 000:987.064 - 0.042ms returns 0
T5194 000:987.099 JLINK_WriteReg(MSP, 0x20002000)
T5194 000:987.127 - 0.041ms returns 0
T5194 000:987.161 JLINK_WriteReg(PSP, 0x20002000)
T5194 000:987.190 - 0.042ms returns 0
T5194 000:987.224 JLINK_WriteReg(CFBP, 0x00000000)
T5194 000:987.255 - 0.044ms returns 0
T5194 000:987.290 JLINK_SetBPEx(Addr = 0x20000000, Type = 0xFFFFFFF2)
T5194 000:987.322 - 0.046ms returns 0x00000009
T5194 000:987.358 JLINK_Go()
T5194 000:987.416   CPU_ReadMem(4 bytes @ 0xE0001000)
T5194 001:000.487 - 13.196ms
T5194 001:000.591 JLINK_IsHalted()
T5194 001:013.574   CPU_ReadMem(2 bytes @ 0x20000000)
T5194 001:014.955 - 14.411ms returns TRUE
T5194 001:015.049 JLINK_ReadReg(R15 (PC))
T5194 001:015.093 - 0.057ms returns 0x20000000
T5194 001:015.136 JLINK_ClrBPEx(BPHandle = 0x00000009)
T5194 001:015.168 - 0.045ms returns 0x00
T5194 001:015.209 JLINK_ReadReg(R0)
T5194 001:015.238 - 0.052ms returns 0x00000000
T5194 001:017.267 JLINK_HasError()
T5194 001:017.326 JLINK_WriteReg(R0, 0x0001F000)
T5194 001:017.364 - 0.051ms returns 0
T5194 001:017.431 JLINK_WriteReg(R1, 0x00001000)
T5194 001:017.463 - 0.045ms returns 0
T5194 001:017.498 JLINK_WriteReg(R2, 0x000000FF)
T5194 001:017.527 - 0.042ms returns 0
T5194 001:017.561 JLINK_WriteReg(R3, 0x00000000)
T5194 001:017.589 - 0.041ms returns 0
T5194 001:017.624 JLINK_WriteReg(R4, 0x00000000)
T5194 001:017.652 - 0.041ms returns 0
T5194 001:017.686 JLINK_WriteReg(R5, 0x00000000)
T5194 001:017.714 - 0.041ms returns 0
T5194 001:017.749 JLINK_WriteReg(R6, 0x00000000)
T5194 001:017.777 - 0.041ms returns 0
T5194 001:017.811 JLINK_WriteReg(R7, 0x00000000)
T5194 001:017.839 - 0.041ms returns 0
T5194 001:017.873 JLINK_WriteReg(R8, 0x00000000)
T5194 001:017.902 - 0.041ms returns 0
T5194 001:017.935 JLINK_WriteReg(R9, 0x200005B4)
T5194 001:017.963 - 0.041ms returns 0
T5194 001:017.997 JLINK_WriteReg(R10, 0x00000000)
T5194 001:018.026 - 0.041ms returns 0
T5194 001:018.059 JLINK_WriteReg(R11, 0x00000000)
T5194 001:018.087 - 0.041ms returns 0
T5194 001:018.121 JLINK_WriteReg(R12, 0x00000000)
T5194 001:018.149 - 0.041ms returns 0
T5194 001:018.183 JLINK_WriteReg(R13 (SP), 0x20002000)
T5194 001:018.218 - 0.049ms returns 0
T5194 001:018.253 JLINK_WriteReg(R14, 0x20000001)
T5194 001:018.282 - 0.041ms returns 0
T5194 001:018.316 JLINK_WriteReg(R15 (PC), 0x20000288)
T5194 001:018.344 - 0.041ms returns 0
T5194 001:018.378 JLINK_WriteReg(XPSR, 0x01000000)
T5194 001:018.407 - 0.041ms returns 0
T5194 001:018.441 JLINK_WriteReg(MSP, 0x20002000)
T5194 001:018.469 - 0.041ms returns 0
T5194 001:018.502 JLINK_WriteReg(PSP, 0x20002000)
T5194 001:018.531 - 0.041ms returns 0
T5194 001:018.565 JLINK_WriteReg(CFBP, 0x00000000)
T5194 001:018.593 - 0.041ms returns 0
T5194 001:018.627 JLINK_SetBPEx(Addr = 0x20000000, Type = 0xFFFFFFF2)
T5194 001:018.660 - 0.046ms returns 0x0000000A
T5194 001:018.696 JLINK_Go()
T5194 001:018.754   CPU_ReadMem(4 bytes @ 0xE0001000)
T5194 001:031.875 - 13.227ms
T5194 001:031.959 JLINK_IsHalted()
T5194 001:044.771   CPU_ReadMem(2 bytes @ 0x20000000)
T5194 001:045.954 - 14.031ms returns TRUE
T5194 001:046.037 JLINK_ReadReg(R15 (PC))
T5194 001:046.079 - 0.057ms returns 0x20000000
T5194 001:046.297 JLINK_ClrBPEx(BPHandle = 0x0000000A)
T5194 001:046.358 - 0.076ms returns 0x00
T5194 001:046.399 JLINK_ReadReg(R0)
T5194 001:046.431 - 0.046ms returns 0x00000000
T5194 001:047.702 JLINK_HasError()
T5194 001:047.764 JLINK_WriteReg(R0, 0x00000001)
T5194 001:047.801 - 0.050ms returns 0
T5194 001:047.837 JLINK_WriteReg(R1, 0x00001000)
T5194 001:047.872 - 0.048ms returns 0
T5194 001:047.908 JLINK_WriteReg(R2, 0x000000FF)
T5194 001:047.937 - 0.042ms returns 0
T5194 001:047.971 JLINK_WriteReg(R3, 0x00000000)
T5194 001:047.999 - 0.041ms returns 0
T5194 001:048.034 JLINK_WriteReg(R4, 0x00000000)
T5194 001:048.062 - 0.041ms returns 0
T5194 001:048.096 JLINK_WriteReg(R5, 0x00000000)
T5194 001:048.124 - 0.041ms returns 0
T5194 001:048.158 JLINK_WriteReg(R6, 0x00000000)
T5194 001:048.186 - 0.041ms returns 0
T5194 001:048.221 JLINK_WriteReg(R7, 0x00000000)
T5194 001:048.271 - 0.064ms returns 0
T5194 001:048.307 JLINK_WriteReg(R8, 0x00000000)
T5194 001:048.335 - 0.041ms returns 0
T5194 001:048.369 JLINK_WriteReg(R9, 0x200005B4)
T5194 001:048.398 - 0.041ms returns 0
T5194 001:048.432 JLINK_WriteReg(R10, 0x00000000)
T5194 001:048.461 - 0.042ms returns 0
T5194 001:048.494 JLINK_WriteReg(R11, 0x00000000)
T5194 001:048.523 - 0.041ms returns 0
T5194 001:048.557 JLINK_WriteReg(R12, 0x00000000)
T5194 001:048.596 - 0.060ms returns 0
T5194 001:048.638 JLINK_WriteReg(R13 (SP), 0x20002000)
T5194 001:048.669 - 0.044ms returns 0
T5194 001:048.703 JLINK_WriteReg(R14, 0x20000001)
T5194 001:048.732 - 0.045ms returns 0
T5194 001:048.769 JLINK_WriteReg(R15 (PC), 0x20000060)
T5194 001:048.798 - 0.042ms returns 0
T5194 001:048.832 JLINK_WriteReg(XPSR, 0x01000000)
T5194 001:048.860 - 0.041ms returns 0
T5194 001:048.894 JLINK_WriteReg(MSP, 0x20002000)
T5194 001:048.923 - 0.042ms returns 0
T5194 001:048.957 JLINK_WriteReg(PSP, 0x20002000)
T5194 001:048.985 - 0.041ms returns 0
T5194 001:049.020 JLINK_WriteReg(CFBP, 0x00000000)
T5194 001:049.048 - 0.041ms returns 0
T5194 001:049.083 JLINK_SetBPEx(Addr = 0x20000000, Type = 0xFFFFFFF2)
T5194 001:049.115 - 0.046ms returns 0x0000000B
T5194 001:049.151 JLINK_Go()
T5194 001:049.208   CPU_ReadMem(4 bytes @ 0xE0001000)
T5194 001:062.396 - 13.292ms
T5194 001:062.479 JLINK_IsHalted()
T5194 001:075.444   CPU_ReadMem(2 bytes @ 0x20000000)
T5194 001:076.878 - 14.447ms returns TRUE
T5194 001:076.973 JLINK_ReadReg(R15 (PC))
T5194 001:077.017 - 0.059ms returns 0x20000000
T5194 001:077.062 JLINK_ClrBPEx(BPHandle = 0x0000000B)
T5194 001:077.093 - 0.044ms returns 0x00
T5194 001:077.133 JLINK_ReadReg(R0)
T5194 001:077.162 - 0.043ms returns 0x00000000
T5194 001:151.678 JLINK_WriteMem(0x20000000, 0x5B8 Bytes, ...)
T5194 001:151.709   Data:  00 BE 0A E0 0D 78 2D 06 68 40 08 24 40 00 00 D3 ...
T5194 001:151.751   CPU_WriteMem(1464 bytes @ 0x20000000)
T5194 001:192.574 - 40.921ms returns 0x5B8
T5194 001:192.751 JLINK_HasError()
T5194 001:192.780 JLINK_WriteReg(R0, 0x00000000)
T5194 001:192.799 - 0.024ms returns 0
T5194 001:192.814 JLINK_WriteReg(R1, 0x01E84800)
T5194 001:192.826 - 0.019ms returns 0
T5194 001:192.842 JLINK_WriteReg(R2, 0x00000002)
T5194 001:192.854 - 0.017ms returns 0
T5194 001:192.868 JLINK_WriteReg(R3, 0x00000000)
T5194 001:192.880 - 0.017ms returns 0
T5194 001:192.894 JLINK_WriteReg(R4, 0x00000000)
T5194 001:192.906 - 0.017ms returns 0
T5194 001:192.919 JLINK_WriteReg(R5, 0x00000000)
T5194 001:192.931 - 0.016ms returns 0
T5194 001:192.945 JLINK_WriteReg(R6, 0x00000000)
T5194 001:192.956 - 0.017ms returns 0
T5194 001:192.970 JLINK_WriteReg(R7, 0x00000000)
T5194 001:192.982 - 0.016ms returns 0
T5194 001:192.995 JLINK_WriteReg(R8, 0x00000000)
T5194 001:193.007 - 0.017ms returns 0
T5194 001:193.021 JLINK_WriteReg(R9, 0x200005B4)
T5194 001:193.032 - 0.016ms returns 0
T5194 001:193.046 JLINK_WriteReg(R10, 0x00000000)
T5194 001:193.057 - 0.017ms returns 0
T5194 001:193.071 JLINK_WriteReg(R11, 0x00000000)
T5194 001:193.083 - 0.017ms returns 0
T5194 001:193.096 JLINK_WriteReg(R12, 0x00000000)
T5194 001:193.108 - 0.016ms returns 0
T5194 001:193.122 JLINK_WriteReg(R13 (SP), 0x20002000)
T5194 001:193.134 - 0.017ms returns 0
T5194 001:193.148 JLINK_WriteReg(R14, 0x20000001)
T5194 001:193.159 - 0.016ms returns 0
T5194 001:193.173 JLINK_WriteReg(R15 (PC), 0x20000020)
T5194 001:193.185 - 0.017ms returns 0
T5194 001:193.198 JLINK_WriteReg(XPSR, 0x01000000)
T5194 001:193.210 - 0.016ms returns 0
T5194 001:193.224 JLINK_WriteReg(MSP, 0x20002000)
T5194 001:193.235 - 0.016ms returns 0
T5194 001:193.249 JLINK_WriteReg(PSP, 0x20002000)
T5194 001:193.260 - 0.016ms returns 0
T5194 001:193.274 JLINK_WriteReg(CFBP, 0x00000000)
T5194 001:193.285 - 0.017ms returns 0
T5194 001:193.300 JLINK_SetBPEx(Addr = 0x20000000, Type = 0xFFFFFFF2)
T5194 001:193.320   CPU_ReadMem(2 bytes @ 0x20000000)
T5194 001:194.582 - 1.308ms returns 0x0000000C
T5194 001:194.625 JLINK_Go()
T5194 001:194.646   CPU_WriteMem(2 bytes @ 0x20000000)
T5194 001:195.703   CPU_ReadMem(4 bytes @ 0xE0001000)
T5194 001:208.591 - 13.995ms
T5194 001:208.639 JLINK_IsHalted()
T5194 001:221.302   CPU_ReadMem(2 bytes @ 0x20000000)
T5194 001:222.509 - 13.917ms returns TRUE
T5194 001:222.603 JLINK_ReadReg(R15 (PC))
T5194 001:222.647 - 0.059ms returns 0x20000000
T5194 001:222.692 JLINK_ClrBPEx(BPHandle = 0x0000000C)
T5194 001:222.723 - 0.045ms returns 0x00
T5194 001:222.775 JLINK_ReadReg(R0)
T5194 001:222.813 - 0.052ms returns 0x00000000
T5194 001:224.047 JLINK_WriteMem(0x200005C8, 0xA38 Bytes, ...)
T5194 001:224.095   Data:  30 33 00 20 C5 93 01 00 EF 93 01 00 F1 93 01 00 ...
T5194 001:224.165   CPU_WriteMem(2616 bytes @ 0x200005C8)
T5194 001:295.504 - 71.507ms returns 0xA38
T5194 001:295.601 JLINK_WriteMem(0x20001000, 0x5C8 Bytes, ...)
T5194 001:295.634   Data:  10 F8 01 5B 15 F0 07 03 01 D1 10 F8 01 3B 2A 11 ...
T5194 001:295.709   CPU_WriteMem(1480 bytes @ 0x20001000)
T5194 001:337.087 - 41.533ms returns 0x5C8
T5194 001:337.181 JLINK_HasError()
T5194 001:337.376 JLINK_WriteReg(R0, 0x00019000)
T5194 001:337.459 - 0.099ms returns 0
T5194 001:337.501 JLINK_WriteReg(R1, 0x00001000)
T5194 001:337.532 - 0.044ms returns 0
T5194 001:337.567 JLINK_WriteReg(R2, 0x200005C8)
T5194 001:337.596 - 0.042ms returns 0
T5194 001:337.630 JLINK_WriteReg(R3, 0x00000000)
T5194 001:337.659 - 0.042ms returns 0
T5194 001:337.693 JLINK_WriteReg(R4, 0x00000000)
T5194 001:337.721 - 0.041ms returns 0
T5194 001:337.761 JLINK_WriteReg(R5, 0x00000000)
T5194 001:337.790 - 0.042ms returns 0
T5194 001:337.824 JLINK_WriteReg(R6, 0x00000000)
T5194 001:337.853 - 0.041ms returns 0
T5194 001:337.887 JLINK_WriteReg(R7, 0x00000000)
T5194 001:337.915 - 0.041ms returns 0
T5194 001:337.949 JLINK_WriteReg(R8, 0x00000000)
T5194 001:337.996 - 0.061ms returns 0
T5194 001:338.031 JLINK_WriteReg(R9, 0x200005B4)
T5194 001:338.059 - 0.041ms returns 0
T5194 001:338.093 JLINK_WriteReg(R10, 0x00000000)
T5194 001:338.122 - 0.042ms returns 0
T5194 001:338.156 JLINK_WriteReg(R11, 0x00000000)
T5194 001:338.184 - 0.041ms returns 0
T5194 001:338.218 JLINK_WriteReg(R12, 0x00000000)
T5194 001:338.246 - 0.041ms returns 0
T5194 001:338.280 JLINK_WriteReg(R13 (SP), 0x20002000)
T5194 001:338.311 - 0.044ms returns 0
T5194 001:338.345 JLINK_WriteReg(R14, 0x20000001)
T5194 001:338.374 - 0.041ms returns 0
T5194 001:338.408 JLINK_WriteReg(R15 (PC), 0x20000154)
T5194 001:338.436 - 0.042ms returns 0
T5194 001:338.471 JLINK_WriteReg(XPSR, 0x01000000)
T5194 001:338.499 - 0.041ms returns 0
T5194 001:338.533 JLINK_WriteReg(MSP, 0x20002000)
T5194 001:338.562 - 0.041ms returns 0
T5194 001:338.596 JLINK_WriteReg(PSP, 0x20002000)
T5194 001:338.624 - 0.041ms returns 0
T5194 001:338.658 JLINK_WriteReg(CFBP, 0x00000000)
T5194 001:338.686 - 0.041ms returns 0
T5194 001:338.721 JLINK_SetBPEx(Addr = 0x20000000, Type = 0xFFFFFFF2)
T5194 001:338.759 - 0.052ms returns 0x0000000D
T5194 001:338.796 JLINK_Go()
T5194 001:338.855   CPU_ReadMem(4 bytes @ 0xE0001000)
T5194 001:351.914 - 13.166ms
T5194 001:351.998 JLINK_IsHalted()
T5194 001:353.413 - 1.463ms returns FALSE
T5194 001:353.498 JLINK_HasError()
T5194 001:404.535 JLINK_IsHalted()
T5194 001:417.067   CPU_ReadMem(2 bytes @ 0x20000000)
T5194 001:418.122 - 13.605ms returns TRUE
T5194 001:418.155 JLINK_ReadReg(R15 (PC))
T5194 001:418.167 - 0.015ms returns 0x20000000
T5194 001:418.176 JLINK_ClrBPEx(BPHandle = 0x0000000D)
T5194 001:418.184 - 0.010ms returns 0x00
T5194 001:418.264 JLINK_ReadReg(R0)
T5194 001:418.279 - 0.019ms returns 0x00000000
T5194 001:418.839 JLINK_WriteMem(0x200005C8, 0xA38 Bytes, ...)
T5194 001:418.853   Data:  08 60 5E 48 F4 30 00 68 09 1D 08 60 5B 48 F8 30 ...
T5194 001:418.873   CPU_WriteMem(2616 bytes @ 0x200005C8)
T5194 001:489.832 - 71.042ms returns 0xA38
T5194 001:489.930 JLINK_WriteMem(0x20001000, 0x5C8 Bytes, ...)
T5194 001:489.964   Data:  07 46 00 BF 38 46 00 B1 B6 E7 00 BF 00 BF 04 F1 ...
T5194 001:490.036   CPU_WriteMem(1480 bytes @ 0x20001000)
T5194 001:531.395 - 41.510ms returns 0x5C8
T5194 001:531.488 JLINK_HasError()
T5194 001:531.529 JLINK_WriteReg(R0, 0x0001A000)
T5194 001:531.573 - 0.058ms returns 0
T5194 001:531.615 JLINK_WriteReg(R1, 0x00001000)
T5194 001:531.645 - 0.043ms returns 0
T5194 001:531.680 JLINK_WriteReg(R2, 0x200005C8)
T5194 001:531.709 - 0.042ms returns 0
T5194 001:531.748 JLINK_WriteReg(R3, 0x00000000)
T5194 001:531.777 - 0.041ms returns 0
T5194 001:531.811 JLINK_WriteReg(R4, 0x00000000)
T5194 001:531.850 - 0.060ms returns 0
T5194 001:531.899 JLINK_WriteReg(R5, 0x00000000)
T5194 001:531.928 - 0.042ms returns 0
T5194 001:531.968 JLINK_WriteReg(R6, 0x00000000)
T5194 001:531.996 - 0.042ms returns 0
T5194 001:532.037 JLINK_WriteReg(R7, 0x00000000)
T5194 001:532.065 - 0.041ms returns 0
T5194 001:532.113 JLINK_WriteReg(R8, 0x00000000)
T5194 001:532.142 - 0.042ms returns 0
T5194 001:532.182 JLINK_WriteReg(R9, 0x200005B4)
T5194 001:532.211 - 0.041ms returns 0
T5194 001:532.250 JLINK_WriteReg(R10, 0x00000000)
T5194 001:532.278 - 0.042ms returns 0
T5194 001:532.313 JLINK_WriteReg(R11, 0x00000000)
T5194 001:532.341 - 0.041ms returns 0
T5194 001:532.380 JLINK_WriteReg(R12, 0x00000000)
T5194 001:532.408 - 0.042ms returns 0
T5194 001:532.443 JLINK_WriteReg(R13 (SP), 0x20002000)
T5194 001:532.473 - 0.044ms returns 0
T5194 001:532.512 JLINK_WriteReg(R14, 0x20000001)
T5194 001:532.541 - 0.042ms returns 0
T5194 001:532.588 JLINK_WriteReg(R15 (PC), 0x20000154)
T5194 001:532.618 - 0.043ms returns 0
T5194 001:532.657 JLINK_WriteReg(XPSR, 0x01000000)
T5194 001:532.686 - 0.042ms returns 0
T5194 001:532.721 JLINK_WriteReg(MSP, 0x20002000)
T5194 001:532.749 - 0.041ms returns 0
T5194 001:532.788 JLINK_WriteReg(PSP, 0x20002000)
T5194 001:532.816 - 0.041ms returns 0
T5194 001:533.021 JLINK_WriteReg(CFBP, 0x00000000)
T5194 001:533.085 - 0.086ms returns 0
T5194 001:533.133 JLINK_SetBPEx(Addr = 0x20000000, Type = 0xFFFFFFF2)
T5194 001:533.171 - 0.052ms returns 0x0000000E
T5194 001:533.208 JLINK_Go()
T5194 001:533.267   CPU_ReadMem(4 bytes @ 0xE0001000)
T5194 001:545.737 - 12.548ms
T5194 001:545.765 JLINK_IsHalted()
T5194 001:547.101 - 1.352ms returns FALSE
T5194 001:547.127 JLINK_HasError()
T5194 001:597.745 JLINK_IsHalted()
T5194 001:610.463   CPU_ReadMem(2 bytes @ 0x20000000)
T5194 001:611.863 - 14.165ms returns TRUE
T5194 001:611.957 JLINK_ReadReg(R15 (PC))
T5194 001:612.001 - 0.058ms returns 0x20000000
T5194 001:612.045 JLINK_ClrBPEx(BPHandle = 0x0000000E)
T5194 001:612.077 - 0.045ms returns 0x00
T5194 001:612.118 JLINK_ReadReg(R0)
T5194 001:612.153 - 0.049ms returns 0x00000000
T5194 001:614.746 JLINK_WriteMem(0x200005C8, 0xA38 Bytes, ...)
T5194 001:614.805   Data:  FE F7 4A FA 00 E0 00 27 01 E0 00 27 00 BF 00 BF ...
T5194 001:614.878   CPU_WriteMem(2616 bytes @ 0x200005C8)
T5194 001:686.004 - 71.305ms returns 0xA38
T5194 001:686.096 JLINK_WriteMem(0x20001000, 0x5C8 Bytes, ...)
T5194 001:686.129   Data:  02 46 4F F0 FF 30 00 21 06 E0 05 4B 5B 5C 93 42 ...
T5194 001:686.201   CPU_WriteMem(1480 bytes @ 0x20001000)
T5194 001:727.292 - 41.213ms returns 0x5C8
T5194 001:727.322 JLINK_HasError()
T5194 001:727.331 JLINK_WriteReg(R0, 0x0001B000)
T5194 001:727.342 - 0.014ms returns 0
T5194 001:727.350 JLINK_WriteReg(R1, 0x00001000)
T5194 001:727.356 - 0.009ms returns 0
T5194 001:727.365 JLINK_WriteReg(R2, 0x200005C8)
T5194 001:727.370 - 0.008ms returns 0
T5194 001:727.379 JLINK_WriteReg(R3, 0x00000000)
T5194 001:727.384 - 0.008ms returns 0
T5194 001:727.392 JLINK_WriteReg(R4, 0x00000000)
T5194 001:727.398 - 0.008ms returns 0
T5194 001:727.405 JLINK_WriteReg(R5, 0x00000000)
T5194 001:727.411 - 0.008ms returns 0
T5194 001:727.418 JLINK_WriteReg(R6, 0x00000000)
T5194 001:727.424 - 0.008ms returns 0
T5194 001:727.431 JLINK_WriteReg(R7, 0x00000000)
T5194 001:727.436 - 0.008ms returns 0
T5194 001:727.444 JLINK_WriteReg(R8, 0x00000000)
T5194 001:727.450 - 0.008ms returns 0
T5194 001:727.457 JLINK_WriteReg(R9, 0x200005B4)
T5194 001:727.463 - 0.008ms returns 0
T5194 001:727.470 JLINK_WriteReg(R10, 0x00000000)
T5194 001:727.476 - 0.008ms returns 0
T5194 001:727.483 JLINK_WriteReg(R11, 0x00000000)
T5194 001:727.489 - 0.008ms returns 0
T5194 001:727.497 JLINK_WriteReg(R12, 0x00000000)
T5194 001:727.503 - 0.008ms returns 0
T5194 001:727.510 JLINK_WriteReg(R13 (SP), 0x20002000)
T5194 001:727.517 - 0.009ms returns 0
T5194 001:727.525 JLINK_WriteReg(R14, 0x20000001)
T5194 001:727.531 - 0.008ms returns 0
T5194 001:727.539 JLINK_WriteReg(R15 (PC), 0x20000154)
T5194 001:727.548 - 0.014ms returns 0
T5194 001:727.559 JLINK_WriteReg(XPSR, 0x01000000)
T5194 001:727.565 - 0.008ms returns 0
T5194 001:727.572 JLINK_WriteReg(MSP, 0x20002000)
T5194 001:727.578 - 0.008ms returns 0
T5194 001:727.585 JLINK_WriteReg(PSP, 0x20002000)
T5194 001:727.591 - 0.008ms returns 0
T5194 001:727.598 JLINK_WriteReg(CFBP, 0x00000000)
T5194 001:727.603 - 0.008ms returns 0
T5194 001:727.612 JLINK_SetBPEx(Addr = 0x20000000, Type = 0xFFFFFFF2)
T5194 001:727.619 - 0.010ms returns 0x0000000F
T5194 001:727.626 JLINK_Go()
T5194 001:727.640   CPU_ReadMem(4 bytes @ 0xE0001000)
T5194 001:740.078 - 12.470ms
T5194 001:740.109 JLINK_IsHalted()
T5194 001:741.207 - 1.116ms returns FALSE
T5194 001:741.239 JLINK_HasError()
T5194 001:792.171 JLINK_IsHalted()
T5194 001:805.316   CPU_ReadMem(2 bytes @ 0x20000000)
T5194 001:806.527 - 14.404ms returns TRUE
T5194 001:806.611 JLINK_ReadReg(R15 (PC))
T5194 001:806.654 - 0.057ms returns 0x20000000
T5194 001:806.691 JLINK_ClrBPEx(BPHandle = 0x0000000F)
T5194 001:806.722 - 0.044ms returns 0x00
T5194 001:806.758 JLINK_ReadReg(R0)
T5194 001:806.787 - 0.043ms returns 0x00000000
T5194 001:808.806 JLINK_WriteMem(0x200005C8, 0xA38 Bytes, ...)
T5194 001:808.855   Data:  93 42 00 D1 70 47 49 1C 03 48 00 78 81 42 F2 DB ...
T5194 001:808.923   CPU_WriteMem(2616 bytes @ 0x200005C8)
T5194 001:879.708 - 70.937ms returns 0xA38
T5194 001:879.775 JLINK_WriteMem(0x20001000, 0x5C8 Bytes, ...)
T5194 001:879.796   Data:  40 28 01 D1 01 20 DC E7 07 48 08 30 00 78 00 F0 ...
T5194 001:879.844   CPU_WriteMem(1480 bytes @ 0x20001000)
T5194 001:921.478 - 41.749ms returns 0x5C8
T5194 001:921.572 JLINK_HasError()
T5194 001:921.768 JLINK_WriteReg(R0, 0x0001C000)
T5194 001:921.835 - 0.082ms returns 0
T5194 001:921.875 JLINK_WriteReg(R1, 0x00001000)
T5194 001:921.906 - 0.044ms returns 0
T5194 001:921.941 JLINK_WriteReg(R2, 0x200005C8)
